HEADER
"PSFversion" "1.00"
"simulator" "spectre"
"version" "15.1.0.284.isr1"
"date" "2:24:01 PM, Mon Oct 12, 2020"
"design" "// NMOS Common-Source Stage"
"analysis type" "ac"
"analysis name" "ac1"
"analysis description" "AC Analysis `ac1': freq = (100 kHz -> 10 GHz)"
"xVecSorted" "ascending"
"tolerance.relative" 0.000100000
"start" 100000.
"stop" 1.00000e+10
"operating point producer" "ac1"
TYPE
"sweep" FLOAT DOUBLE PROP(
"key" "sweep"
)
"V" COMPLEX DOUBLE PROP(
"units" "V"
"key" "node"
"tolerance" 1.00000e-06
)
"I" COMPLEX DOUBLE PROP(
"units" "A"
"key" "branch"
"tolerance" 1.00000e-10
)
"MMF" COMPLEX DOUBLE PROP(
"units" "A*turn"
"key" "node"
"tolerance" 1.00000e-12
)
"Wb" COMPLEX DOUBLE PROP(
"units" "Wb"
"key" "node"
"tolerance" 1.00000e-09
)
"Temp" COMPLEX DOUBLE PROP(
"units" "C"
"key" "node"
"tolerance" 0.000100000
)
"Pwr" COMPLEX DOUBLE PROP(
"units" "W"
"key" "node"
"tolerance" 1.00000e-09
)
"U" COMPLEX DOUBLE PROP(
"units" ""
"key" "node"
"tolerance" 1.00000e-06
)
"V/Sec" COMPLEX DOUBLE PROP(
"units" "V/s"
"key" "node"
"tolerance" 0.000100000
)
"I/Sec" COMPLEX DOUBLE PROP(
"units" "A/s"
"key" "node"
"tolerance" 1.00000e-06
)
"1/Sec" COMPLEX DOUBLE PROP(
"units" "1/s"
"key" "node"
"tolerance" 0.000100000
)
"HOD" COMPLEX DOUBLE PROP(
"units" ""
"key" "node"
"tolerance" 0.0100000
)
"Q" COMPLEX DOUBLE PROP(
"units" "Coul"
"key" "node"
"tolerance" 1.00000e-15
)
SWEEP
"freq" "sweep" PROP(
"sweep_direction" 0
"units" "Hz"
"plot" 0
"grid" 3
)
TRACE
"vdd2" "V"
"vi" "V"
"vin:p" "I"
"vo" "V"
"vob:p" "I"
VALUE
"freq" 1.000000000000000e+05
"vdd2" (0.00000 0.00000)
"vi" (1.00000 0.00000)
"vin:p" (-2.99164e-11 -4.48418e-08)
"vo" (-1.94882 0.00378355)
"vob:p" (-0.00138214 2.68337e-06)
"freq" 1.120740201309780e+05
"vdd2" (0.00000 0.00000)
"vi" (1.00000 0.00000)
"vin:p" (-3.75767e-11 -5.02560e-08)
"vo" (-1.94882 0.00424037)
"vob:p" (-0.00138214 3.00735e-06)
"freq" 1.256058598831885e+05
"vdd2" (0.00000 0.00000)
"vi" (1.00000 0.00000)
"vin:p" (-4.71985e-11 -5.63239e-08)
"vo" (-1.94881 0.00475235)
"vob:p" (-0.00138214 3.37046e-06)
"freq" 1.407715366911727e+05
"vdd2" (0.00000 0.00000)
"vi" (1.00000 0.00000)
"vin:p" (-5.92840e-11 -6.31244e-08)
"vo" (-1.94881 0.00532614)
"vob:p" (-0.00138214 3.77740e-06)
"freq" 1.577683203699519e+05
"vdd2" (0.00000 0.00000)
"vi" (1.00000 0.00000)
"vin:p" (-7.44640e-11 -7.07461e-08)
"vo" (-1.94881 0.00596921)
"vob:p" (-0.00138213 4.23348e-06)
"freq" 1.768172991317257e+05
"vdd2" (0.00000 0.00000)
"vi" (1.00000 0.00000)
"vin:p" (-9.35310e-11 -7.92879e-08)
"vo" (-1.94880 0.00668991)
"vob:p" (-0.00138213 4.74462e-06)
"freq" 1.981662554239417e+05
"vdd2" (0.00000 0.00000)
"vi" (1.00000 0.00000)
"vin:p" (-1.17480e-10 -8.88610e-08)
"vo" (-1.94880 0.00749763)
"vob:p" (-0.00138213 5.31747e-06)
"freq" 2.220928889966337e+05
"vdd2" (0.00000 0.00000)
"vi" (1.00000 0.00000)
"vin:p" (-1.47561e-10 -9.95900e-08)
"vo" (-1.94879 0.00840287)
"vob:p" (-0.00138212 5.95948e-06)
"freq" 2.489084291235578e+05
"vdd2" (0.00000 0.00000)
"vi" (1.00000 0.00000)
"vin:p" (-1.85345e-10 -1.11614e-07)
"vo" (-1.94878 0.00941738)
"vob:p" (-0.00138211 6.67900e-06)
"freq" 2.789616829636371e+05
"vdd2" (0.00000 0.00000)
"vi" (1.00000 0.00000)
"vin:p" (-2.32802e-10 -1.25090e-07)
"vo" (-1.94877 0.0105544)
"vob:p" (-0.00138211 7.48537e-06)
"freq" 3.126435727223816e+05
"vdd2" (0.00000 0.00000)
"vi" (1.00000 0.00000)
"vin:p" (-2.92411e-10 -1.40193e-07)
"vo" (-1.94875 0.0118286)
"vob:p" (-0.00138209 8.38910e-06)
"freq" 3.503922206310906e+05
"vdd2" (0.00000 0.00000)
"vi" (1.00000 0.00000)
"vin:p" (-3.67282e-10 -1.57120e-07)
"vo" (-1.94874 0.0132567)
"vob:p" (-0.00138208 9.40191e-06)
"freq" 3.926986478874692e+05
"vdd2" (0.00000 0.00000)
"vi" (1.00000 0.00000)
"vin:p" (-4.61323e-10 -1.76090e-07)
"vo" (-1.94871 0.0148571)
"vob:p" (-0.00138207 1.05370e-05)
"freq" 4.401131616874805e+05
"vdd2" (0.00000 0.00000)
"vi" (1.00000 0.00000)
"vin:p" (-5.79440e-10 -1.97350e-07)
"vo" (-1.94868 0.0166507)
"vob:p" (-0.00138205 1.18090e-05)
"freq" 4.932525134287105e+05
"vdd2" (0.00000 0.00000)
"vi" (1.00000 0.00000)
"vin:p" (-7.27797e-10 -2.21177e-07)
"vo" (-1.94865 0.0186608)
"vob:p" (-0.00138202 1.32346e-05)
"freq" 5.528079211966477e+05
"vdd2" (0.00000 0.00000)
"vi" (1.00000 0.00000)
"vin:p" (-9.14134e-10 -2.47880e-07)
"vo" (-1.94860 0.0209134)
"vob:p" (-0.00138199 1.48322e-05)
"freq" 6.195540608875717e+05
"vdd2" (0.00000 0.00000)
"vi" (1.00000 0.00000)
"vin:p" (-1.14817e-09 -2.77806e-07)
"vo" (-1.94854 0.0234378)
"vob:p" (-0.00138195 1.66226e-05)
"freq" 6.943591429214285e+05
"vdd2" (0.00000 0.00000)
"vi" (1.00000 0.00000)
"vin:p" (-1.44212e-09 -3.11344e-07)
"vo" (-1.94847 0.0262668)
"vob:p" (-0.00138190 1.86289e-05)
"freq" 7.781962056190479e+05
"vdd2" (0.00000 0.00000)
"vi" (1.00000 0.00000)
"vin:p" (-1.81130e-09 -3.48931e-07)
"vo" (-1.94838 0.0294368)
"vob:p" (-0.00138183 2.08772e-05)
"freq" 8.721557721439983e+05
"vdd2" (0.00000 0.00000)
"vi" (1.00000 0.00000)
"vin:p" (-2.27497e-09 -3.91053e-07)
"vo" (-1.94827 0.0329891)
"vob:p" (-0.00138175 2.33966e-05)
"freq" 9.774600356461509e+05
"vdd2" (0.00000 0.00000)
"vi" (1.00000 0.00000)
"vin:p" (-2.85729e-09 -4.38257e-07)
"vo" (-1.94813 0.0369696)
"vob:p" (-0.00138165 2.62195e-05)
"freq" 1.095478757122332e+06
"vdd2" (0.00000 0.00000)
"vi" (1.00000 0.00000)
"vin:p" (-3.58859e-09 -4.91157e-07)
"vo" (-1.94795 0.0414295)
"vob:p" (-0.00138152 2.93826e-05)
"freq" 1.227747082787869e+06
"vdd2" (0.00000 0.00000)
"vi" (1.00000 0.00000)
"vin:p" (-4.50696e-09 -5.50438e-07)
"vo" (-1.94772 0.0464263)
"vob:p" (-0.00138136 3.29265e-05)
"freq" 1.375985512721171e+06
"vdd2" (0.00000 0.00000)
"vi" (1.00000 0.00000)
"vin:p" (-5.66019e-09 -6.16867e-07)
"vo" (-1.94744 0.0520243)
"vob:p" (-0.00138116 3.68967e-05)
"freq" 1.542122280526465e+06
"vdd2" (0.00000 0.00000)
"vi" (1.00000 0.00000)
"vin:p" (-7.10824e-09 -6.91304e-07)
"vo" (-1.94709 0.0582952)
"vob:p" (-0.00138091 4.13441e-05)
"freq" 1.728318435121527e+06
"vdd2" (0.00000 0.00000)
"vi" (1.00000 0.00000)
"vin:p" (-8.92633e-09 -7.74712e-07)
"vo" (-1.94664 0.0653189)
"vob:p" (-0.00138060 4.63254e-05)
"freq" 1.936995950905503e+06
"vdd2" (0.00000 0.00000)
"vi" (1.00000 0.00000)
"vin:p" (-1.12088e-08 -8.68165e-07)
"vo" (-1.94608 0.0731845)
"vob:p" (-0.00138020 5.19039e-05)
"freq" 2.170869231954062e+06
"vdd2" (0.00000 0.00000)
"vi" (1.00000 0.00000)
"vin:p" (-1.40738e-08 -9.72867e-07)
"vo" (-1.94538 0.0819914)
"vob:p" (-0.00137970 5.81499e-05)
"freq" 2.432980420037402e+06
"vdd2" (0.00000 0.00000)
"vi" (1.00000 0.00000)
"vin:p" (-1.76696e-08 -1.09016e-06)
"vo" (-1.94450 0.0918495)
"vob:p" (-0.00137908 6.51415e-05)
"freq" 2.726738965735470e+06
"vdd2" (0.00000 0.00000)
"vi" (1.00000 0.00000)
"vin:p" (-2.21814e-08 -1.22155e-06)
"vo" (-1.94339 0.102881)
"vob:p" (-0.00137829 7.29654e-05)
"freq" 3.055965977377591e+06
"vdd2" (0.00000 0.00000)
"vi" (1.00000 0.00000)
"vin:p" (-2.78414e-08 -1.36871e-06)
"vo" (-1.94201 0.115221)
"vob:p" (-0.00137731 8.17171e-05)
"freq" 3.424943924681998e+06
"vdd2" (0.00000 0.00000)
"vi" (1.00000 0.00000)
"vin:p" (-3.49392e-08 -1.53349e-06)
"vo" (-1.94027 0.129018)
"vob:p" (-0.00137608 9.15019e-05)
"freq" 3.838472343622809e+06
"vdd2" (0.00000 0.00000)
"vi" (1.00000 0.00000)
"vin:p" (-4.38366e-08 -1.71799e-06)
"vo" (-1.93809 0.144433)
"vob:p" (-0.00137453 0.000102435)
"freq" 4.301930267113849e+06
"vdd2" (0.00000 0.00000)
"vi" (1.00000 0.00000)
"vin:p" (-5.49840e-08 -1.92449e-06)
"vo" (-1.93536 0.161645)
"vob:p" (-0.00137260 0.000114642)
"freq" 4.821346193585808e+06
"vdd2" (0.00000 0.00000)
"vi" (1.00000 0.00000)
"vin:p" (-6.89415e-08 -2.15555e-06)
"vo" (-1.93195 0.180843)
"vob:p" (-0.00137017 0.000128258)
"freq" 5.403476503583498e+06
"vdd2" (0.00000 0.00000)
"vi" (1.00000 0.00000)
"vin:p" (-8.64035e-08 -2.41398e-06)
"vo" (-1.92767 0.202231)
"vob:p" (-0.00136714 0.000143426)
"freq" 6.055893344398834e+06
"vdd2" (0.00000 0.00000)
"vi" (1.00000 0.00000)
"vin:p" (-1.08228e-07 -2.70289e-06)
"vo" (-1.92233 0.226022)
"vob:p" (-0.00136335 0.000160299)
"freq" 6.787083125912104e+06
"vdd2" (0.00000 0.00000)
"vi" (1.00000 0.00000)
"vin:p" (-1.35470e-07 -3.02566e-06)
"vo" (-1.91566 0.252435)
"vob:p" (-0.00135862 0.000179032)
"freq" 7.606556908840939e+06
"vdd2" (0.00000 0.00000)
"vi" (1.00000 0.00000)
"vin:p" (-1.69422e-07 -3.38597e-06)
"vo" (-1.90734 0.281690)
"vob:p" (-0.00135273 0.000199780)
"freq" 8.524974121288689e+06
"vdd2" (0.00000 0.00000)
"vi" (1.00000 0.00000)
"vin:p" (-2.11654e-07 -3.78783e-06)
"vo" (-1.89700 0.313995)
"vob:p" (-0.00134539 0.000222692)
"freq" 9.554281212853746e+06
"vdd2" (0.00000 0.00000)
"vi" (1.00000 0.00000)
"vin:p" (-2.64057e-07 -4.23548e-06)
"vo" (-1.88417 0.349534)
"vob:p" (-0.00133629 0.000247896)
"freq" 1.070786704986395e+07
"vdd2" (0.00000 0.00000)
"vi" (1.00000 0.00000)
"vin:p" (-3.28885e-07 -4.73343e-06)
"vo" (-1.86830 0.388447)
"vob:p" (-0.00132504 0.000275494)
"freq" 1.200073707306288e+07
"vdd2" (0.00000 0.00000)
"vi" (1.00000 0.00000)
"vin:p" (-4.08787e-07 -5.28639e-06)
"vo" (-1.84874 0.430803)
"vob:p" (-0.00131116 0.000305534)
"freq" 1.344970848313023e+07
"vdd2" (0.00000 0.00000)
"vi" (1.00000 0.00000)
"vin:p" (-5.06814e-07 -5.89914e-06)
"vo" (-1.82474 0.476569)
"vob:p" (-0.00129414 0.000337992)
"freq" 1.507362899294122e+07
"vdd2" (0.00000 0.00000)
"vi" (1.00000 0.00000)
"vin:p" (-6.26405e-07 -6.57651e-06)
"vo" (-1.79546 0.525565)
"vob:p" (-0.00127337 0.000372741)
"freq" 1.689362199201788e+07
"vdd2" (0.00000 0.00000)
"vi" (1.00000 0.00000)
"vin:p" (-7.71303e-07 -7.32317e-06)
"vo" (-1.75998 0.577420)
"vob:p" (-0.00124821 0.000409518)
"freq" 1.893336131218543e+07
"vdd2" (0.00000 0.00000)
"vi" (1.00000 0.00000)
"vin:p" (-9.45411e-07 -8.14355e-06)
"vo" (-1.71735 0.631513)
"vob:p" (-0.00121798 0.000447882)
"freq" 2.121937916848949e+07
"vdd2" (0.00000 0.00000)
"vi" (1.00000 0.00000)
"vin:p" (-1.15254e-06 -9.04172e-06)
"vo" (-1.66664 0.686930)
"vob:p" (-0.00118202 0.000487184)
"freq" 2.378141128096146e+07
"vdd2" (0.00000 0.00000)
"vi" (1.00000 0.00000)
"vin:p" (-1.39604e-06 -1.00213e-05)
"vo" (-1.60702 0.742422)
"vob:p" (-0.00113973 0.000526541)
"freq" 2.665278366645541e+07
"vdd2" (0.00000 0.00000)
"vi" (1.00000 0.00000)
"vin:p" (-1.67835e-06 -1.10856e-05)
"vo" (-1.53790 0.796398)
"vob:p" (-0.00109071 0.000564821)
"freq" 2.987084613180924e+07
"vdd2" (0.00000 0.00000)
"vi" (1.00000 0.00000)
"vin:p" (-2.00041e-06 -1.22379e-05)
"vo" (-1.45905 0.846957)
"vob:p" (-0.00103479 0.000600679)
"freq" 3.347745810705734e+07
"vdd2" (0.00000 0.00000)
"vi" (1.00000 0.00000)
"vin:p" (-2.36112e-06 -1.34817e-05)
"vo" (-1.37074 0.891982)
"vob:p" (-0.000972153 0.000632611)
"freq" 3.751953313824315e+07
"vdd2" (0.00000 0.00000)
"vi" (1.00000 0.00000)
"vin:p" (-2.75690e-06 -1.48220e-05)
"vo" (-1.27383 0.929296)
"vob:p" (-0.000903428 0.000659075)
"freq" 4.204964912240358e+07
"vdd2" (0.00000 0.00000)
"vi" (1.00000 0.00000)
"vin:p" (-3.18148e-06 -1.62660e-05)
"vo" (-1.16988 0.956878)
"vob:p" (-0.000829704 0.000678637)
"freq" 4.712673222244818e+07
"vdd2" (0.00000 0.00000)
"vi" (1.00000 0.00000)
"vin:p" (-3.62607e-06 -1.78243e-05)
"vo" (-1.06103 0.973102)
"vob:p" (-0.000752504 0.000690143)
"freq" 5.281682335805865e+07
"vdd2" (0.00000 0.00000)
"vi" (1.00000 0.00000)
"vin:p" (-4.07999e-06 -1.95123e-05)
"vo" (-0.949894 0.976959)
"vob:p" (-0.000673684 0.000692879)
"freq" 5.919393724285372e+07
"vdd2" (0.00000 0.00000)
"vi" (1.00000 0.00000)
"vin:p" (-4.53162e-06 -2.13507e-05)
"vo" (-0.839318 0.968202)
"vob:p" (-0.000595261 0.000686668)
"freq" 6.634102514187434e+07
"vdd2" (0.00000 0.00000)
"vi" (1.00000 0.00000)
"vin:p" (-4.96959e-06 -2.33661e-05)
"vo" (-0.732088 0.947388)
"vob:p" (-0.000519211 0.000671906)
"freq" 7.435105387260139e+07
"vdd2" (0.00000 0.00000)
"vi" (1.00000 0.00000)
"vin:p" (-5.38384e-06 -2.55910e-05)
"vo" (-0.630664 0.915787)
"vob:p" (-0.000447279 0.000649495)
"freq" 8.332821508477356e+07
"vdd2" (0.00000 0.00000)
"vi" (1.00000 0.00000)
"vin:p" (-5.76653e-06 -2.80636e-05)
"vo" (-0.536966 0.875210)
"vob:p" (-0.000380827 0.000620716)
"freq" 9.338928054889372e+07
"vdd2" (0.00000 0.00000)
"vi" (1.00000 0.00000)
"vin:p" (-6.11244e-06 -3.08266e-05)
"vo" (-0.452274 0.827766)
"vob:p" (-0.000320762 0.000587068)
"freq" 1.046651210825426e+08
"vdd2" (0.00000 0.00000)
"vi" (1.00000 0.00000)
"vin:p" (-6.41900e-06 -3.39274e-05)
"vo" (-0.377219 0.775630)
"vob:p" (-0.000267531 0.000550092)
"freq" 1.173024088721613e+08
"vdd2" (0.00000 0.00000)
"vi" (1.00000 0.00000)
"vin:p" (-6.68596e-06 -3.74176e-05)
"vo" (-0.311857 0.720852)
"vob:p" (-0.000221175 0.000511243)
"freq" 1.314655253335081e+08
"vdd2" (0.00000 0.00000)
"vi" (1.00000 0.00000)
"vin:p" (-6.91491e-06 -4.13527e-05)
"vo" (-0.255800 0.665219)
"vob:p" (-0.000181419 0.000471786)
"freq" 1.473386993275718e+08
"vdd2" (0.00000 0.00000)
"vi" (1.00000 0.00000)
"vin:p" (-7.10872e-06 -4.57928e-05)
"vo" (-0.208349 0.610189)
"vob:p" (-0.000147765 0.000432758)
"freq" 1.651284035451039e+08
"vdd2" (0.00000 0.00000)
"vi" (1.00000 0.00000)
"vin:p" (-7.27097e-06 -5.08032e-05)
"vo" (-0.168626 0.556878)
"vob:p" (-0.000119593 0.000394949)
"freq" 1.850660402311023e+08
"vdd2" (0.00000 0.00000)
"vi" (1.00000 0.00000)
"vin:p" (-7.40553e-06 -5.64551e-05)
"vo" (-0.135680 0.506080)
"vob:p" (-9.62268e-05 0.000358922)
"freq" 2.074109511842093e+08
"vdd2" (0.00000 0.00000)
"vi" (1.00000 0.00000)
"vin:p" (-7.51627e-06 -6.28268e-05)
"vo" (-0.108565 0.458311)
"vob:p" (-7.69967e-05 0.000325043)
"freq" 2.324537911840436e+08
"vdd2" (0.00000 0.00000)
"vi" (1.00000 0.00000)
"vin:p" (-7.60684e-06 -7.00050e-05)
"vo" (-0.0863916 0.413864)
"vob:p" (-6.12707e-05 0.000293520)
"freq" 2.605203087268265e+08
"vdd2" (0.00000 0.00000)
"vi" (1.00000 0.00000)
"vin:p" (-7.68052e-06 -7.80858e-05)
"vo" (-0.0683525 0.372854)
"vob:p" (-4.84769e-05 0.000264435)
"freq" 2.919755832477895e+08
"vdd2" (0.00000 0.00000)
"vi" (1.00000 0.00000)
"vin:p" (-7.74020e-06 -8.71766e-05)
"vo" (-0.0537389 0.335271)
"vob:p" (-3.81127e-05 0.000237781)
"freq" 3.272287739466679e+08
"vdd2" (0.00000 0.00000)
"vi" (1.00000 0.00000)
"vin:p" (-7.78839e-06 -9.73970e-05)
"vo" (-0.0419411 0.301013)
"vob:p" (-2.97455e-05 0.000213485)
"freq" 3.667384419873409e+08
"vdd2" (0.00000 0.00000)
"vi" (1.00000 0.00000)
"vin:p" (-7.82718e-06 -0.000108881)
"vo" (-0.0324428 0.269922)
"vob:p" (-2.30091e-05 0.000191434)
"freq" 4.110185153009274e+08
"vdd2" (0.00000 0.00000)
"vi" (1.00000 0.00000)
"vin:p" (-7.85835e-06 -0.000121780)
"vo" (-0.0248129 0.241802)
"vob:p" (-1.75978e-05 0.000171491)
"freq" 4.606449735804081e+08
"vdd2" (0.00000 0.00000)
"vi" (1.00000 0.00000)
"vin:p" (-7.88334e-06 -0.000136261)
"vo" (-0.0186949 0.216438)
"vob:p" (-1.32588e-05 0.000153502)
"freq" 5.162633404228446e+08
"vdd2" (0.00000 0.00000)
"vi" (1.00000 0.00000)
"vin:p" (-7.90334e-06 -0.000152513)
"vo" (-0.0137961 0.193611)
"vob:p" (-9.78450e-06 0.000137313)
"freq" 5.785970800743582e+08
"vdd2" (0.00000 0.00000)
"vi" (1.00000 0.00000)
"vin:p" (-7.91935e-06 -0.000170748)
"vo" (-0.00987825 0.173102)
"vob:p" (-7.00585e-06 0.000122768)
"freq" 6.484570079997869e+08
"vdd2" (0.00000 0.00000)
"vi" (1.00000 0.00000)
"vin:p" (-7.93213e-06 -0.000191204)
"vo" (-0.00674769 0.154703)
"vob:p" (-4.78560e-06 0.000109718)
"freq" 7.267518376864184e+08
"vdd2" (0.00000 0.00000)
"vi" (1.00000 0.00000)
"vin:p" (-7.94234e-06 -0.000214146)
"vo" (-0.00424809 0.138214)
"vob:p" (-3.01283e-06 9.80241e-05)
"freq" 8.145000008709289e+08
"vdd2" (0.00000 0.00000)
"vi" (1.00000 0.00000)
"vin:p" (-7.95049e-06 -0.000239873)
"vo" (-0.00225344 0.123450)
"vob:p" (-1.59819e-06 8.75534e-05)
"freq" 9.128428949429005e+08
"vdd2" (0.00000 0.00000)
"vi" (1.00000 0.00000)
"vin:p" (-7.95699e-06 -0.000268721)
"vo" (-0.000662498 0.110241)
"vob:p" (-4.69857e-07 7.81849e-05)
"freq" 1.023059729842508e+09
"vdd2" (0.00000 0.00000)
"vi" (1.00000 0.00000)
"vin:p" (-7.96217e-06 -0.000301064)
"vo" (0.000605979 0.0984283)
"vob:p" (4.29773e-07 6.98073e-05)
"freq" 1.146584167575621e+09
"vdd2" (0.00000 0.00000)
"vi" (1.00000 0.00000)
"vin:p" (-7.96630e-06 -0.000337323)
"vo" (0.00161705 0.0878699)
"vob:p" (1.14684e-06 6.23191e-05)
"freq" 1.285022970787308e+09
"vdd2" (0.00000 0.00000)
"vi" (1.00000 0.00000)
"vin:p" (-7.96959e-06 -0.000377969)
"vo" (0.00242275 0.0784358)
"vob:p" (1.71826e-06 5.56283e-05)
"freq" 1.440176902967859e+09
"vdd2" (0.00000 0.00000)
"vi" (1.00000 0.00000)
"vin:p" (-7.97221e-06 -0.000423532)
"vo" (0.00306468 0.0700088)
"vob:p" (2.17353e-06 4.96516e-05)
"freq" 1.614064152153893e+09
"vdd2" (0.00000 0.00000)
"vi" (1.00000 0.00000)
"vin:p" (-7.97430e-06 -0.000474604)
"vo" (0.00357605 0.0624829)
"vob:p" (2.53621e-06 4.43141e-05)
"freq" 1.808946582811852e+09
"vdd2" (0.00000 0.00000)
"vi" (1.00000 0.00000)
"vin:p" (-7.97596e-06 -0.000531850)
"vo" (0.00398337 0.0557631)
"vob:p" (2.82508e-06 3.95483e-05)
"freq" 2.027359157379193e+09
"vdd2" (0.00000 0.00000)
"vi" (1.00000 0.00000)
"vin:p" (-7.97729e-06 -0.000596013)
"vo" (0.00430777 0.0497639)
"vob:p" (3.05515e-06 3.52935e-05)
"freq" 2.272142910168382e+09
"vdd2" (0.00000 0.00000)
"vi" (1.00000 0.00000)
"vin:p" (-7.97834e-06 -0.000667930)
"vo" (0.00456611 0.0444086)
"vob:p" (3.23838e-06 3.14954e-05)
"freq" 2.546481902546701e+09
"vdd2" (0.00000 0.00000)
"vi" (1.00000 0.00000)
"vin:p" (-7.97918e-06 -0.000748534)
"vo" (0.00477184 0.0396285)
"vob:p" (3.38428e-06 2.81053e-05)
"freq" 2.853944640091900e+09
"vdd2" (0.00000 0.00000)
"vi" (1.00000 0.00000)
"vin:p" (-7.97985e-06 -0.000838875)
"vo" (0.00493566 0.0353622)
"vob:p" (3.50047e-06 2.50796e-05)
"freq" 3.198530490463563e+09
"vdd2" (0.00000 0.00000)
"vi" (1.00000 0.00000)
"vin:p" (-7.98038e-06 -0.000940128)
"vo" (0.00506610 0.0315546)
"vob:p" (3.59298e-06 2.23792e-05)
"freq" 3.584721705777602e+09
"vdd2" (0.00000 0.00000)
"vi" (1.00000 0.00000)
"vin:p" (-7.98081e-06 -0.00105361)
"vo" (0.00516997 0.0281567)
"vob:p" (3.66664e-06 1.99693e-05)
"freq" 4.017541726172726e+09
"vdd2" (0.00000 0.00000)
"vi" (1.00000 0.00000)
"vin:p" (-7.98115e-06 -0.00118080)
"vo" (0.00525267 0.0251243)
"vob:p" (3.72530e-06 1.78187e-05)
"freq" 4.502620522961260e+09
"vdd2" (0.00000 0.00000)
"vi" (1.00000 0.00000)
"vin:p" (-7.98141e-06 -0.00132334)
"vo" (0.00531851 0.0224184)
"vob:p" (3.77199e-06 1.58996e-05)
"freq" 5.046267831325148e+09
"vdd2" (0.00000 0.00000)
"vi" (1.00000 0.00000)
"vin:p" (-7.98163e-06 -0.00148310)
"vo" (0.00537094 0.0200037)
"vob:p" (3.80917e-06 1.41870e-05)
"freq" 5.655555225142411e+09
"vdd2" (0.00000 0.00000)
"vi" (1.00000 0.00000)
"vin:p" (-7.98180e-06 -0.00166215)
"vo" (0.00541267 0.0178491)
"vob:p" (3.83878e-06 1.26589e-05)
"freq" 6.338408101544682e+09
"vdd2" (0.00000 0.00000)
"vi" (1.00000 0.00000)
"vin:p" (-7.98193e-06 -0.00186283)
"vo" (0.00544591 0.0159264)
"vob:p" (3.86235e-06 1.12953e-05)
"freq" 7.103708771708724e+09
"vdd2" (0.00000 0.00000)
"vi" (1.00000 0.00000)
"vin:p" (-7.98204e-06 -0.00208773)
"vo" (0.00547236 0.0142108)
"vob:p" (3.88111e-06 1.00786e-05)
"freq" 7.961411998850883e+09
"vdd2" (0.00000 0.00000)
"vi" (1.00000 0.00000)
"vin:p" (-7.98213e-06 -0.00233979)
"vo" (0.00549343 0.0126800)
"vob:p" (3.89605e-06 8.99289e-06)
"freq" 8.922674486302233e+09
"vdd2" (0.00000 0.00000)
"vi" (1.00000 0.00000)
"vin:p" (-7.98220e-06 -0.00262228)
"vo" (0.00551020 0.0113140)
"vob:p" (3.90794e-06 8.02413e-06)
"freq" 1.000000000000000e+10
"vdd2" (0.00000 0.00000)
"vi" (1.00000 0.00000)
"vin:p" (-7.98225e-06 -0.00293889)
"vo" (0.00552355 0.0100952)
"vob:p" (3.91741e-06 7.15972e-06)
END
