HEADER
"PSFversion" "1.00"
"simulator" "spectre"
"version" "15.1.0.284.isr1"
"date" "2:24:01 PM, Mon Oct 12, 2020"
"design" "// NMOS Common-Source Stage"
"analysis type" "dc"
"analysis name" "dc1"
"analysis description" "DC Analysis `dc1': vi = (0 -> 1.2)"
"xVecSorted" "unsorted"
"tolerance.relative" 0.000100000
"reltol" 0.000100000
"abstol(V)" 1.00000e-06
"abstol(I)" 1.00000e-10
"temp" 27.0000
"tnom" 27.0000
"tempeffects" "all"
"gmindc" 1.00000e-13
TYPE
"sweep" FLOAT DOUBLE PROP(
"key" "sweep"
)
"LogicV" FLOAT DOUBLE PROP(
"key" "node"
)
"V" FLOAT DOUBLE PROP(
"units" "V"
"key" "node"
"tolerance" 1.00000e-06
)
"I" FLOAT DOUBLE PROP(
"units" "A"
"key" "branch"
"tolerance" 1.00000e-10
)
"MMF" FLOAT DOUBLE PROP(
"units" "A*turn"
"key" "node"
"tolerance" 1.00000e-12
)
"Wb" FLOAT DOUBLE PROP(
"units" "Wb"
"key" "node"
"tolerance" 1.00000e-09
)
"Temp" FLOAT DOUBLE PROP(
"units" "C"
"key" "node"
"tolerance" 0.000100000
)
"Pwr" FLOAT DOUBLE PROP(
"units" "W"
"key" "node"
"tolerance" 1.00000e-09
)
"U" FLOAT DOUBLE PROP(
"units" ""
"key" "node"
"tolerance" 1.00000e-06
)
"V/Sec" FLOAT DOUBLE PROP(
"units" "V/s"
"key" "node"
"tolerance" 0.000100000
)
"I/Sec" FLOAT DOUBLE PROP(
"units" "A/s"
"key" "node"
"tolerance" 1.00000e-06
)
"1/Sec" FLOAT DOUBLE PROP(
"units" "1/s"
"key" "node"
"tolerance" 0.000100000
)
"HOD" FLOAT DOUBLE PROP(
"units" ""
"key" "node"
"tolerance" 0.0100000
)
"Q" FLOAT DOUBLE PROP(
"units" "Coul"
"key" "node"
"tolerance" 1.00000e-15
)
SWEEP
"vi" "sweep" PROP(
"sweep_direction" 0
"plot" 0
"grid" 1
)
TRACE
"vdd2" "V"
"vi" "V"
"vin:p" "I"
"vo" "V"
"vob:p" "I"
VALUE
"vi" 0.000000000000000e+00
"vdd2" 9.000000000000000e-01
"vi" 0.000000000000000e+00
"vin:p" 0.000000000000000e+00
"vo" 1.139699791219398e+00
"vob:p" -1.480713490459740e-10
"vi" 1.188118811881188e-02
"vdd2" 9.000000000000000e-01
"vi" 1.188118811881188e-02
"vin:p" 0.000000000000000e+00
"vo" 1.139699709957576e+00
"vob:p" -2.057038467545982e-10
"vi" 2.376237623762376e-02
"vdd2" 9.000000000000000e-01
"vi" 2.376237623762376e-02
"vin:p" 0.000000000000000e+00
"vo" 1.139699599386812e+00
"vob:p" -2.841228282676542e-10
"vi" 3.564356435643565e-02
"vdd2" 9.000000000000000e-01
"vi" 3.564356435643565e-02
"vin:p" 0.000000000000000e+00
"vo" 1.139699446670167e+00
"vob:p" -3.924325056251478e-10
"vi" 4.752475247524753e-02
"vdd2" 9.000000000000000e-01
"vi" 4.752475247524753e-02
"vin:p" 0.000000000000000e+00
"vo" 1.139699235762709e+00
"vob:p" -5.420122633273161e-10
"vi" 5.940594059405940e-02
"vdd2" 9.000000000000000e-01
"vi" 5.940594059405940e-02
"vin:p" 0.000000000000000e+00
"vo" 1.139698944523414e+00
"vob:p" -7.485649542999009e-10
"vi" 7.128712871287128e-02
"vdd2" 9.000000000000000e-01
"vi" 7.128712871287128e-02
"vin:p" 0.000000000000000e+00
"vo" 1.139698542406597e+00
"vob:p" -1.033754186546833e-09
"vi" 8.316831683168316e-02
"vdd2" 9.000000000000000e-01
"vi" 8.316831683168316e-02
"vin:p" 0.000000000000000e+00
"vo" 1.139697987283751e+00
"vob:p" -1.427458332514353e-09
"vi" 9.504950495049504e-02
"vdd2" 9.000000000000000e-01
"vi" 9.504950495049504e-02
"vin:p" 0.000000000000000e+00
"vo" 1.139697221071149e+00
"vob:p" -1.970871525681252e-09
"vi" 1.069306930693069e-01
"vdd2" 9.000000000000000e-01
"vi" 1.069306930693069e-01
"vin:p" 0.000000000000000e+00
"vo" 1.139696163719041e+00
"vob:p" -2.720766637366573e-09
"vi" 1.188118811881188e-01
"vdd2" 9.000000000000000e-01
"vi" 1.188118811881188e-01
"vin:p" 0.000000000000000e+00
"vo" 1.139694704955973e+00
"vob:p" -3.755350373972795e-09
"vi" 1.306930693069307e-01
"vdd2" 9.000000000000000e-01
"vi" 1.306930693069307e-01
"vin:p" 0.000000000000000e+00
"vo" 1.139692692961698e+00
"vob:p" -5.182296668435900e-09
"vi" 1.425742574257426e-01
"vdd2" 9.000000000000000e-01
"vi" 1.425742574257426e-01
"vin:p" 0.000000000000000e+00
"vo" 1.139689918845084e+00
"vob:p" -7.149755259620742e-09
"vi" 1.544554455445545e-01
"vdd2" 9.000000000000000e-01
"vi" 1.544554455445545e-01
"vin:p" 0.000000000000000e+00
"vo" 1.139686095403739e+00
"vob:p" -9.861415787749738e-09
"vi" 1.663366336633663e-01
"vdd2" 9.000000000000000e-01
"vi" 1.663366336633663e-01
"vin:p" 0.000000000000000e+00
"vo" 1.139680828107050e+00
"vob:p" -1.359708719886210e-08
"vi" 1.782178217821782e-01
"vdd2" 9.000000000000000e-01
"vi" 1.782178217821782e-01
"vin:p" 0.000000000000000e+00
"vo" 1.139673575531894e+00
"vob:p" -1.874075752176702e-08
"vi" 1.900990099009901e-01
"vdd2" 9.000000000000000e-01
"vi" 1.900990099009901e-01
"vin:p" 0.000000000000000e+00
"vo" 1.139663595537694e+00
"vob:p" -2.581876759261148e-08
"vi" 2.019801980198020e-01
"vdd2" 9.000000000000000e-01
"vi" 2.019801980198020e-01
"vin:p" 0.000000000000000e+00
"vo" 1.139649872229486e+00
"vob:p" -3.555161029335990e-08
"vi" 2.138613861386139e-01
"vdd2" 9.000000000000000e-01
"vi" 2.138613861386139e-01
"vin:p" 0.000000000000000e+00
"vo" 1.139631017145663e+00
"vob:p" -4.892401016820184e-08
"vi" 2.257425742574258e-01
"vdd2" 9.000000000000000e-01
"vi" 2.257425742574258e-01
"vin:p" 0.000000000000000e+00
"vo" 1.139605136028353e+00
"vob:p" -6.727941251589382e-08
"vi" 2.376237623762377e-01
"vdd2" 9.000000000000000e-01
"vi" 2.376237623762377e-01
"vin:p" 0.000000000000000e+00
"vo" 1.139569649883822e+00
"vob:p" -9.244689090635092e-08
"vi" 2.495049504950496e-01
"vdd2" 9.000000000000000e-01
"vi" 2.495049504950496e-01
"vin:p" 0.000000000000000e+00
"vo" 1.139521055702510e+00
"vob:p" -1.269108492833823e-07
"vi" 2.613861386138615e-01
"vdd2" 9.000000000000000e-01
"vi" 2.613861386138615e-01
"vin:p" 0.000000000000000e+00
"vo" 1.139454608062604e+00
"vob:p" -1.740368350327230e-07
"vi" 2.732673267326733e-01
"vdd2" 9.000000000000000e-01
"vi" 2.732673267326733e-01
"vin:p" 0.000000000000000e+00
"vo" 1.139363897766400e+00
"vob:p" -2.383703784395484e-07
"vi" 2.851485148514852e-01
"vdd2" 9.000000000000000e-01
"vi" 2.851485148514852e-01
"vin:p" 0.000000000000000e+00
"vo" 1.139240297537065e+00
"vob:p" -3.260301155563758e-07
"vi" 2.970297029702971e-01
"vdd2" 9.000000000000000e-01
"vi" 2.970297029702971e-01
"vin:p" 0.000000000000000e+00
"vo" 1.139072237516032e+00
"vob:p" -4.452216198351181e-07
"vi" 3.089108910891090e-01
"vdd2" 9.000000000000000e-01
"vi" 3.089108910891090e-01
"vin:p" 0.000000000000000e+00
"vo" 1.138844264712051e+00
"vob:p" -6.069044595380443e-07
"vi" 3.207920792079209e-01
"vdd2" 9.000000000000000e-01
"vi" 3.207920792079209e-01
"vin:p" 0.000000000000000e+00
"vo" 1.138535830474588e+00
"vob:p" -8.256521456824346e-07
"vi" 3.326732673267328e-01
"vdd2" 9.000000000000000e-01
"vi" 3.326732673267328e-01
"vin:p" 0.000000000000000e+00
"vo" 1.138119738220735e+00
"vob:p" -1.120753034939975e-06
"vi" 3.445544554455447e-01
"vdd2" 9.000000000000000e-01
"vi" 3.445544554455447e-01
"vin:p" 0.000000000000000e+00
"vo" 1.137560169682319e+00
"vob:p" -1.517610154383675e-06
"vi" 3.564356435643566e-01
"vdd2" 9.000000000000000e-01
"vi" 3.564356435643566e-01
"vin:p" 0.000000000000000e+00
"vo" 1.136810191628153e+00
"vob:p" -2.049509483579202e-06
"vi" 3.683168316831685e-01
"vdd2" 9.000000000000000e-01
"vi" 3.683168316831685e-01
"vin:p" 0.000000000000000e+00
"vo" 1.135808626919629e+00
"vob:p" -2.759839064092821e-06
"vi" 3.801980198019804e-01
"vdd2" 9.000000000000000e-01
"vi" 3.801980198019804e-01
"vin:p" 0.000000000000000e+00
"vo" 1.134476156816512e+00
"vob:p" -3.704853321622644e-06
"vi" 3.920792079207923e-01
"vdd2" 9.000000000000000e-01
"vi" 3.920792079207923e-01
"vin:p" 0.000000000000000e+00
"vo" 1.132710513951539e+00
"vob:p" -4.957082303873434e-06
"vi" 4.039603960396042e-01
"vdd2" 9.000000000000000e-01
"vi" 4.039603960396042e-01
"vin:p" 0.000000000000000e+00
"vo" 1.130380645398787e+00
"vob:p" -6.609471348377861e-06
"vi" 4.158415841584160e-01
"vdd2" 9.000000000000000e-01
"vi" 4.158415841584160e-01
"vin:p" 0.000000000000000e+00
"vo" 1.127319805188388e+00
"vob:p" -8.780280008235220e-06
"vi" 4.277227722772279e-01
"vdd2" 9.000000000000000e-01
"vi" 4.277227722772279e-01
"vin:p" 0.000000000000000e+00
"vo" 1.123317722985793e+00
"vob:p" -1.161863618028888e-05
"vi" 4.396039603960398e-01
"vdd2" 9.000000000000000e-01
"vi" 4.396039603960398e-01
"vin:p" 0.000000000000000e+00
"vo" 1.118112342641059e+00
"vob:p" -1.531039529002917e-05
"vi" 4.514851485148517e-01
"vdd2" 9.000000000000000e-01
"vi" 4.514851485148517e-01
"vin:p" 0.000000000000000e+00
"vo" 1.111382157795296e+00
"vob:p" -2.008357603170471e-05
"vi" 4.633663366336636e-01
"vdd2" 9.000000000000000e-01
"vi" 4.633663366336636e-01
"vin:p" 0.000000000000000e+00
"vo" 1.102740842377396e+00
"vob:p" -2.621216852666957e-05
"vi" 4.752475247524755e-01
"vdd2" 9.000000000000000e-01
"vi" 4.752475247524755e-01
"vin:p" 0.000000000000000e+00
"vo" 1.091736502729771e+00
"vob:p" -3.401666473065911e-05
"vi" 4.871287128712874e-01
"vdd2" 9.000000000000000e-01
"vi" 4.871287128712874e-01
"vin:p" 0.000000000000000e+00
"vo" 1.077858146570229e+00
"vob:p" -4.385947051756842e-05
"vi" 4.990099009900993e-01
"vdd2" 9.000000000000000e-01
"vi" 4.990099009900993e-01
"vin:p" 0.000000000000000e+00
"vo" 1.060551502056149e+00
"vob:p" -5.613368648500068e-05
"vi" 5.108910891089111e-01
"vdd2" 9.000000000000000e-01
"vi" 5.108910891089111e-01
"vin:p" 0.000000000000000e+00
"vo" 1.039244907539262e+00
"vob:p" -7.124474642605565e-05
"vi" 5.227722772277230e-01
"vdd2" 9.000000000000000e-01
"vi" 5.227722772277230e-01
"vin:p" 0.000000000000000e+00
"vo" 1.013383787353049e+00
"vob:p" -8.958596641627705e-05
"vi" 5.346534653465349e-01
"vdd2" 9.000000000000000e-01
"vi" 5.346534653465349e-01
"vin:p" 0.000000000000000e+00
"vo" 9.824698534519807e-01
"vob:p" -1.115107422326378e-04
"vi" 5.465346534653468e-01
"vdd2" 9.000000000000000e-01
"vi" 5.465346534653468e-01
"vin:p" 0.000000000000000e+00
"vo" 9.460995198609410e-01
"vob:p" -1.373053050631624e-04
"vi" 5.584158415841587e-01
"vdd2" 9.000000000000000e-01
"vi" 5.584158415841587e-01
"vin:p" 0.000000000000000e+00
"vo" 9.039958305633162e-01
"vob:p" -1.671660776146693e-04
"vi" 5.702970297029706e-01
"vdd2" 9.000000000000000e-01
"vi" 5.702970297029706e-01
"vin:p" 0.000000000000000e+00
"vo" 8.560296890751377e-01
"vob:p" -2.011846176772073e-04
"vi" 5.821782178217825e-01
"vdd2" 9.000000000000000e-01
"vi" 5.821782178217825e-01
"vin:p" 0.000000000000000e+00
"vo" 8.022289352756427e-01
"vob:p" -2.393411806555726e-04
"vi" 5.940594059405944e-01
"vdd2" 9.000000000000000e-01
"vi" 5.940594059405944e-01
"vin:p" 0.000000000000000e+00
"vo" 7.427771417370969e-01
"vob:p" -2.815055732361015e-04
"vi" 6.059405940594063e-01
"vdd2" 9.000000000000000e-01
"vi" 6.059405940594063e-01
"vin:p" 0.000000000000000e+00
"vo" 6.780074645157734e-01
"vob:p" -3.274415145278203e-04
"vi" 6.178217821782181e-01
"vdd2" 9.000000000000000e-01
"vi" 6.178217821782181e-01
"vin:p" 0.000000000000000e+00
"vo" 6.084010102742865e-01
"vob:p" -3.768077941317118e-04
"vi" 6.297029702970300e-01
"vdd2" 9.000000000000000e-01
"vi" 6.297029702970300e-01
"vin:p" 0.000000000000000e+00
"vo" 5.346066520481522e-01
"vob:p" -4.291442184055659e-04
"vi" 6.415841584158419e-01
"vdd2" 9.000000000000000e-01
"vi" 6.415841584158419e-01
"vin:p" 0.000000000000000e+00
"vo" 4.575183611741315e-01
"vob:p" -4.838167651247294e-04
"vi" 6.534653465346538e-01
"vdd2" 9.000000000000000e-01
"vi" 6.534653465346538e-01
"vin:p" 0.000000000000000e+00
"vo" 3.785030886409258e-01
"vob:p" -5.398559655028897e-04
"vi" 6.653465346534657e-01
"vdd2" 9.000000000000000e-01
"vi" 6.653465346534657e-01
"vin:p" 0.000000000000000e+00
"vo" 3.000493684484155e-01
"vob:p" -5.954969018096344e-04
"vi" 6.772277227722776e-01
"vdd2" 9.000000000000000e-01
"vi" 6.772277227722776e-01
"vin:p" 0.000000000000000e+00
"vo" 2.275415346029651e-01
"vob:p" -6.469208974447057e-04
"vi" 6.891089108910895e-01
"vdd2" 9.000000000000000e-01
"vi" 6.891089108910895e-01
"vin:p" 0.000000000000000e+00
"vo" 1.714264801902566e-01
"vob:p" -6.867188083757047e-04
"vi" 7.009900990099014e-01
"vdd2" 9.000000000000000e-01
"vi" 7.009900990099014e-01
"vin:p" 0.000000000000000e+00
"vo" 1.373163475129048e-01
"vob:p" -7.109103918348193e-04
"vi" 7.128712871287133e-01
"vdd2" 9.000000000000000e-01
"vi" 7.128712871287133e-01
"vin:p" 0.000000000000000e+00
"vo" 1.169345513595170e-01
"vob:p" -7.253655664116902e-04
"vi" 7.247524752475252e-01
"vdd2" 9.000000000000000e-01
"vi" 7.247524752475252e-01
"vin:p" 0.000000000000000e+00
"vo" 1.031888065286283e-01
"vob:p" -7.351143216109020e-04
"vi" 7.366336633663371e-01
"vdd2" 9.000000000000000e-01
"vi" 7.366336633663371e-01
"vin:p" 0.000000000000000e+00
"vo" 9.302259378429026e-02
"vob:p" -7.423244015714254e-04
"vi" 7.485148514851490e-01
"vdd2" 9.000000000000000e-01
"vi" 7.485148514851490e-01
"vin:p" 0.000000000000000e+00
"vo" 8.508422981414090e-02
"vob:p" -7.479544469403256e-04
"vi" 7.603960396039608e-01
"vdd2" 9.000000000000000e-01
"vi" 7.603960396039608e-01
"vin:p" 0.000000000000000e+00
"vo" 7.863342916167806e-02
"vob:p" -7.525294828640581e-04
"vi" 7.722772277227727e-01
"vdd2" 9.000000000000000e-01
"vi" 7.722772277227727e-01
"vin:p" 0.000000000000000e+00
"vo" 7.325203059330952e-02
"vob:p" -7.563460775933975e-04
"vi" 7.841584158415846e-01
"vdd2" 9.000000000000000e-01
"vi" 7.841584158415846e-01
"vin:p" 0.000000000000000e+00
"vo" 6.867331926509139e-02
"vob:p" -7.595933905921339e-04
"vi" 7.960396039603965e-01
"vdd2" 9.000000000000000e-01
"vi" 7.960396039603965e-01
"vin:p" 0.000000000000000e+00
"vo" 6.471701503529130e-02
"vob:p" -7.623992801168147e-04
"vi" 8.079207920792084e-01
"vdd2" 9.000000000000000e-01
"vi" 8.079207920792084e-01
"vin:p" 0.000000000000000e+00
"vo" 6.125567366475829e-02
"vob:p" -7.648541321526538e-04
"vi" 8.198019801980203e-01
"vdd2" 9.000000000000000e-01
"vi" 8.198019801980203e-01
"vin:p" 0.000000000000000e+00
"vo" 5.819598237255641e-02
"vob:p" -7.670241259769104e-04
"vi" 8.316831683168322e-01
"vdd2" 9.000000000000000e-01
"vi" 8.316831683168322e-01
"vin:p" 0.000000000000000e+00
"vo" 5.546767275169374e-02
"vob:p" -7.689590973392244e-04
"vi" 8.435643564356441e-01
"vdd2" 9.000000000000000e-01
"vi" 8.435643564356441e-01
"vin:p" 0.000000000000000e+00
"vo" 5.301660187939081e-02
"vob:p" -7.706974454756094e-04
"vi" 8.554455445544560e-01
"vdd2" 9.000000000000000e-01
"vi" 8.554455445544560e-01
"vin:p" 0.000000000000000e+00
"vo" 5.080024744702635e-02
"vob:p" -7.722693280517544e-04
"vi" 8.673267326732679e-01
"vdd2" 9.000000000000000e-01
"vi" 8.673267326732679e-01
"vin:p" 0.000000000000000e+00
"vo" 4.878466917518091e-02
"vob:p" -7.736988161878150e-04
"vi" 8.792079207920798e-01
"vdd2" 9.000000000000000e-01
"vi" 8.792079207920798e-01
"vin:p" 0.000000000000000e+00
"vo" 4.694239740890174e-02
"vob:p" -7.750053919085805e-04
"vi" 8.910891089108917e-01
"vdd2" 9.000000000000000e-01
"vi" 8.910891089108917e-01
"vin:p" 0.000000000000000e+00
"vo" 4.525092842437976e-02
"vob:p" -7.762050153018584e-04
"vi" 9.029702970297036e-01
"vdd2" 9.000000000000000e-01
"vi" 9.029702970297036e-01
"vin:p" 0.000000000000000e+00
"vo" 4.369162858858922e-02
"vob:p" -7.773109017102205e-04
"vi" 9.148514851485154e-01
"vdd2" 9.000000000000000e-01
"vi" 9.148514851485154e-01
"vin:p" 0.000000000000000e+00
"vo" 4.224892113563784e-02
"vob:p" -7.783340984853633e-04
"vi" 9.267326732673273e-01
"vdd2" 9.000000000000000e-01
"vi" 9.267326732673273e-01
"vin:p" 0.000000000000000e+00
"vo" 4.090967267842724e-02
"vob:p" -7.792839200862218e-04
"vi" 9.386138613861392e-01
"vdd2" 9.000000000000000e-01
"vi" 9.386138613861392e-01
"vin:p" 0.000000000000000e+00
"vo" 3.966272365264129e-02
"vob:p" -7.801682810974176e-04
"vi" 9.504950495049511e-01
"vdd2" 9.000000000000000e-01
"vi" 9.504950495049511e-01
"vin:p" 0.000000000000000e+00
"vo" 3.849852427727016e-02
"vob:p" -7.809939544132837e-04
"vi" 9.623762376237630e-01
"vdd2" 9.000000000000000e-01
"vi" 9.623762376237630e-01
"vin:p" 0.000000000000000e+00
"vo" 3.740884905841493e-02
"vob:p" -7.817667737174363e-04
"vi" 9.742574257425749e-01
"vdd2" 9.000000000000000e-01
"vi" 9.742574257425749e-01
"vin:p" 0.000000000000000e+00
"vo" 3.638657056086427e-02
"vob:p" -7.824917939284651e-04
"vi" 9.861386138613868e-01
"vdd2" 9.000000000000000e-01
"vi" 9.861386138613868e-01
"vin:p" 0.000000000000000e+00
"vo" 3.542547845364274e-02
"vob:p" -7.831734195364237e-04
"vi" 9.980198019801987e-01
"vdd2" 9.000000000000000e-01
"vi" 9.980198019801987e-01
"vin:p" 0.000000000000000e+00
"vo" 3.452013352470662e-02
"vob:p" -7.838155081385061e-04
"vi" 1.009900990099011e+00
"vdd2" 9.000000000000000e-01
"vi" 1.009900990099011e+00
"vin:p" 0.000000000000000e+00
"vo" 3.366574897829069e-02
"vob:p" -7.844214546253259e-04
"vi" 1.021782178217822e+00
"vdd2" 9.000000000000000e-01
"vi" 1.021782178217822e+00
"vin:p" 0.000000000000000e+00
"vo" 3.285809321412947e-02
"vob:p" -7.849942601318232e-04
"vi" 1.033663366336634e+00
"vdd2" 9.000000000000000e-01
"vi" 1.033663366336634e+00
"vin:p" 0.000000000000000e+00
"vo" 3.209340966405349e-02
"vob:p" -7.855365888907424e-04
"vi" 1.045544554455446e+00
"vdd2" 9.000000000000000e-01
"vi" 1.045544554455446e+00
"vin:p" 0.000000000000000e+00
"vo" 3.136835027818508e-02
"vob:p" -7.860508154055426e-04
"vi" 1.057425742574258e+00
"vdd2" 9.000000000000000e-01
"vi" 1.057425742574258e+00
"vin:p" 0.000000000000000e+00
"vo" 3.067992001247032e-02
"vob:p" -7.865390638209432e-04
"vi" 1.069306930693070e+00
"vdd2" 9.000000000000000e-01
"vi" 1.069306930693070e+00
"vin:p" 0.000000000000000e+00
"vo" 3.002543024247003e-02
"vob:p" -7.870032409627873e-04
"vi" 1.081188118811882e+00
"vdd2" 9.000000000000000e-01
"vi" 1.081188118811882e+00
"vin:p" 0.000000000000000e+00
"vo" 2.940245946500968e-02
"vob:p" -7.874450642092130e-04
"vi" 1.093069306930694e+00
"vdd2" 9.000000000000000e-01
"vi" 1.093069306930694e+00
"vin:p" 0.000000000000000e+00
"vo" 2.880881998486159e-02
"vob:p" -7.878660851171195e-04
"vi" 1.104950495049506e+00
"vdd2" 9.000000000000000e-01
"vi" 1.104950495049506e+00
"vin:p" 0.000000000000000e+00
"vo" 2.824252954361055e-02
"vob:p" -7.882677095435386e-04
"vi" 1.116831683168318e+00
"vdd2" 9.000000000000000e-01
"vi" 1.116831683168318e+00
"vin:p" 0.000000000000000e+00
"vo" 2.770178705077393e-02
"vob:p" -7.886512148576073e-04
"vi" 1.128712871287129e+00
"vdd2" 9.000000000000000e-01
"vi" 1.128712871287129e+00
"vin:p" 0.000000000000000e+00
"vo" 2.718495173674845e-02
"vob:p" -7.890177647257104e-04
"vi" 1.140594059405941e+00
"vdd2" 9.000000000000000e-01
"vi" 1.140594059405941e+00
"vin:p" 0.000000000000000e+00
"vo" 2.669052517334707e-02
"vob:p" -7.893684218628744e-04
"vi" 1.152475247524753e+00
"vdd2" 9.000000000000000e-01
"vi" 1.152475247524753e+00
"vin:p" 0.000000000000000e+00
"vo" 2.621713570814299e-02
"vob:p" -7.897041590722390e-04
"vi" 1.164356435643565e+00
"vdd2" 9.000000000000000e-01
"vi" 1.164356435643565e+00
"vin:p" 0.000000000000000e+00
"vo" 2.576352493926115e-02
"vob:p" -7.900258688374036e-04
"vi" 1.176237623762377e+00
"vdd2" 9.000000000000000e-01
"vi" 1.176237623762377e+00
"vin:p" 0.000000000000000e+00
"vo" 2.532853592200388e-02
"vob:p" -7.903343716865221e-04
"vi" 1.188118811881189e+00
"vdd2" 9.000000000000000e-01
"vi" 1.188118811881189e+00
"vin:p" 0.000000000000000e+00
"vo" 2.491110285107512e-02
"vob:p" -7.906304235098759e-04
"vi" 1.200000000000000e+00
"vdd2" 9.000000000000000e-01
"vi" 1.200000000000000e+00
"vin:p" 0.000000000000000e+00
"vo" 2.451024200476864e-02
"vob:p" -7.909147219824337e-04
END
