HEADER
"PSFversion" "1.00"
"simulator" "spectre"
"version" "15.1.0.284.isr1"
"date" "1:19:43 PM, Mon Oct 12, 2020"
"design" "// NMOS Common-Source Stage"
"analysis type" "noise"
"analysis name" "noise1"
"analysis description" "Noise Analysis `noise1': freq = (100 kHz -> 1 THz)"
"xVecSorted" "ascending"
"tolerance.relative" 0.000100000
"operating point producer" "ac1"
"output" "pair of nodes"
"ground" "0"
"positive output signal" "vo"
"negative output signal" "0"
TYPE
"sweep" FLOAT DOUBLE PROP(
"key" "sweep"
)
"V/sqrt(Hz)" FLOAT DOUBLE PROP(
"units" "V/sqrt(Hz)"
"key" "noise"
)
"V^2/Hz" FLOAT DOUBLE PROP(
"units" "V^2/Hz"
"key" "noise"
)
"nfet.1" STRUCT(
"rd" FLOAT DOUBLE PROP(
"units" "V^2/Hz"
)
"rs" FLOAT DOUBLE PROP(
"units" "V^2/Hz"
)
"id" FLOAT DOUBLE PROP(
"units" "V^2/Hz"
)
"total" FLOAT DOUBLE PROP(
"units" "V^2/Hz"
)
) PROP(
"key" "inst"
"master" "b3v3"
)
"resistor" STRUCT(
"rn" FLOAT DOUBLE PROP(
"units" "V^2/Hz"
)
"total" FLOAT DOUBLE PROP(
"units" "V^2/Hz"
)
) PROP(
"key" "inst"
"master" "resistor"
)
SWEEP
"freq" "sweep" PROP(
"sweep_direction" 0
"units" "Hz"
"plot" 0
"grid" 3
)
TRACE
"m1" "nfet.1"
"rl" "resistor"
"out" "V/sqrt(Hz)"
VALUE
"freq" 1.000000000000000e+05
"m1" (
0.000000000000000e+00
0.000000000000000e+00
3.679422140740625e-17
3.679422140740625e-17
)
"rl" (
2.127863390622741e-17
2.127863390622741e-17
)
"out" 7.620554790409532e-09
"freq" 1.173024088721613e+05
"m1" (
0.000000000000000e+00
0.000000000000000e+00
3.679416956053248e-17
3.679416956053248e-17
)
"rl" (
2.127860392242549e-17
2.127860392242549e-17
)
"out" 7.620549421331638e-09
"freq" 1.375985512721171e+05
"m1" (
0.000000000000000e+00
0.000000000000000e+00
3.679409822022416e-17
3.679409822022416e-17
)
"rl" (
2.127856266528659e-17
2.127856266528659e-17
)
"out" 7.620542033576793e-09
"freq" 1.614064152153894e+05
"m1" (
0.000000000000000e+00
0.000000000000000e+00
3.679400005744563e-17
3.679400005744563e-17
)
"rl" (
2.127850589632267e-17
2.127850589632267e-17
)
"out" 7.620531868168277e-09
"freq" 1.893336131218544e+05
"m1" (
0.000000000000000e+00
0.000000000000000e+00
3.679386498774069e-17
3.679386498774069e-17
)
"rl" (
2.127842778354590e-17
2.127842778354590e-17
)
"out" 7.620517880779927e-09
"freq" 2.220928889966338e+05
"m1" (
0.000000000000000e+00
0.000000000000000e+00
3.679367913540451e-17
3.679367913540451e-17
)
"rl" (
2.127832030243417e-17
2.127832030243417e-17
)
"out" 7.620498634462096e-09
"freq" 2.605203087268267e+05
"m1" (
0.000000000000000e+00
0.000000000000000e+00
3.679342340835157e-17
3.679342340835157e-17
)
"rl" (
2.127817241175646e-17
2.127817241175646e-17
)
"out" 7.620472152045962e-09
"freq" 3.055965977377592e+05
"m1" (
0.000000000000000e+00
0.000000000000000e+00
3.679307153744227e-17
3.679307153744227e-17
)
"rl" (
2.127796891968693e-17
2.127796891968693e-17
)
"out" 7.620435713076334e-09
"freq" 3.584721705777604e+05
"m1" (
0.000000000000000e+00
0.000000000000000e+00
3.679258737917016e-17
3.679258737917016e-17
)
"rl" (
2.127768892390958e-17
2.127768892390958e-17
)
"out" 7.620385574436490e-09
"freq" 4.204964912240361e+05
"m1" (
0.000000000000000e+00
0.000000000000000e+00
3.679192120523038e-17
3.679192120523038e-17
)
"rl" (
2.127730366582175e-17
2.127730366582175e-17
)
"out" 7.620316586012167e-09
"freq" 4.932525134287108e+05
"m1" (
0.000000000000000e+00
0.000000000000000e+00
3.679100459897346e-17
3.679100459897346e-17
)
"rl" (
2.127677357907903e-17
2.127677357907903e-17
)
"out" 7.620221662002523e-09
"freq" 5.785970800743588e+05
"m1" (
0.000000000000000e+00
0.000000000000000e+00
3.678974343669757e-17
3.678974343669757e-17
)
"rl" (
2.127604423057432e-17
2.127604423057432e-17
)
"out" 7.620091053738917e-09
"freq" 6.787083125912111e+05
"m1" (
0.000000000000000e+00
0.000000000000000e+00
3.678800823700776e-17
3.678800823700776e-17
)
"rl" (
2.127504073933191e-17
2.127504073933191e-17
)
"out" 7.619911349637846e-09
"freq" 7.961411998850892e+05
"m1" (
0.000000000000000e+00
0.000000000000000e+00
3.678562089492084e-17
3.678562089492084e-17
)
"rl" (
2.127366010464708e-17
2.127366010464708e-17
)
"out" 7.619664100179740e-09
"freq" 9.338928054889385e+05
"m1" (
0.000000000000000e+00
0.000000000000000e+00
3.678233645325157e-17
3.678233645325157e-17
)
"rl" (
2.127176066421341e-17
2.127176066421341e-17
)
"out" 7.619323927847207e-09
"freq" 1.095478757122333e+06
"m1" (
0.000000000000000e+00
0.000000000000000e+00
3.677781806772349e-17
3.677781806772349e-17
)
"rl" (
2.126914761608189e-17
2.126914761608189e-17
)
"out" 7.618855930112171e-09
"freq" 1.285022970787310e+06
"m1" (
0.000000000000000e+00
0.000000000000000e+00
3.677160264900603e-17
3.677160264900603e-17
)
"rl" (
2.126555314895081e-17
2.126555314895081e-17
)
"out" 7.618212112953854e-09
"freq" 1.507362899294125e+06
"m1" (
0.000000000000000e+00
0.000000000000000e+00
3.676305375619325e-17
3.676305375619325e-17
)
"rl" (
2.126060919977867e-17
2.126060919977867e-17
)
"out" 7.617326496610994e-09
"freq" 1.768172991317259e+06
"m1" (
0.000000000000000e+00
0.000000000000000e+00
3.675129709923256e-17
3.675129709923256e-17
)
"rl" (
2.125381015389976e-17
2.125381015389976e-17
)
"out" 7.616108406078022e-09
"freq" 2.074109511842097e+06
"m1" (
0.000000000000000e+00
0.000000000000000e+00
3.673513239592147e-17
3.673513239592147e-17
)
"rl" (
2.124446187064215e-17
2.124446187064215e-17
)
"out" 7.614433285974973e-09
"freq" 2.432980420037406e+06
"m1" (
0.000000000000000e+00
0.000000000000000e+00
3.671291322880171e-17
3.671291322880171e-17
)
"rl" (
2.123161220282047e-17
2.123161220282047e-17
)
"out" 7.612130150727993e-09
"freq" 2.853944640091906e+06
"m1" (
0.000000000000000e+00
0.000000000000000e+00
3.668238387732390e-17
3.668238387732390e-17
)
"rl" (
2.121395663440124e-17
2.121395663440124e-17
)
"out" 7.608964483536847e-09
"freq" 3.347745810705740e+06
"m1" (
0.000000000000000e+00
0.000000000000000e+00
3.664045883632633e-17
3.664045883632633e-17
)
"rl" (
2.118971077282931e-17
2.118971077282931e-17
)
"out" 7.604615020443549e-09
"freq" 3.926986478874700e+06
"m1" (
0.000000000000000e+00
0.000000000000000e+00
3.658292699733702e-17
3.658292699733702e-17
)
"rl" (
2.115643927276818e-17
2.115643927276818e-17
)
"out" 7.598642396514341e-09
"freq" 4.606449735804091e+06
"m1" (
0.000000000000000e+00
0.000000000000000e+00
3.650405871753576e-17
3.650405871753576e-17
)
"rl" (
2.111082859836030e-17
2.111082859836030e-17
)
"out" 7.590447109090219e-09
"freq" 5.403476503583510e+06
"m1" (
0.000000000000000e+00
0.000000000000000e+00
3.639609134668503e-17
3.639609134668503e-17
)
"rl" (
2.104838949596124e-17
2.104838949596124e-17
)
"out" 7.579213735120964e-09
"freq" 6.338408101544696e+06
"m1" (
0.000000000000000e+00
0.000000000000000e+00
3.624856957948452e-17
3.624856957948452e-17
)
"rl" (
2.096307551030295e-17
2.096307551030295e-17
)
"out" 7.563837986749020e-09
"freq" 7.435105387260158e+06
"m1" (
0.000000000000000e+00
0.000000000000000e+00
3.604752578041716e-17
3.604752578041716e-17
)
"rl" (
2.084680895441898e-17
2.084680895441898e-17
)
"out" 7.542833336010821e-09
"freq" 8.721557721440004e+06
"m1" (
0.000000000000000e+00
0.000000000000000e+00
3.577451024065976e-17
3.577451024065976e-17
)
"rl" (
2.068892009309796e-17
2.068892009309796e-17
)
"out" 7.514215217423421e-09
"freq" 1.023059729842511e+07
"m1" (
0.000000000000000e+00
0.000000000000000e+00
3.540553524874284e-17
3.540553524874284e-17
)
"rl" (
2.047553648357353e-17
2.047553648357353e-17
)
"out" 7.475364321042579e-09
"freq" 1.200073707306291e+07
"m1" (
0.000000000000000e+00
0.000000000000000e+00
3.491009855221147e-17
3.491009855221147e-17
)
"rl" (
2.018901822918591e-17
2.018901822918591e-17
)
"out" 7.422877931193357e-09
"freq" 1.407715366911730e+07
"m1" (
0.000000000000000e+00
0.000000000000000e+00
3.425062204116045e-17
3.425062204116045e-17
)
"rl" (
1.980763336189840e-17
1.980763336189840e-17
)
"out" 7.352431938009277e-09
"freq" 1.651284035451044e+07
"m1" (
0.000000000000000e+00
0.000000000000000e+00
3.338288919095617e-17
3.338288919095617e-17
)
"rl" (
1.930581082179194e-17
1.930581082179194e-17
)
"out" 7.258698231277293e-09
"freq" 1.936995950905509e+07
"m1" (
0.000000000000000e+00
0.000000000000000e+00
3.225835252389404e-17
3.225835252389404e-17
)
"rl" (
1.865547489573461e-17
1.865547489573461e-17
)
"out" 7.135392590434576e-09
"freq" 2.272142910168389e+07
"m1" (
0.000000000000000e+00
0.000000000000000e+00
3.082936593166842e-17
3.082936593166842e-17
)
"rl" (
1.782907114564041e-17
1.782907114564041e-17
)
"out" 6.975559983062925e-09
"freq" 2.665278366645549e+07
"m1" (
0.000000000000000e+00
0.000000000000000e+00
2.905816428808545e-17
2.905816428808545e-17
)
"rl" (
1.680475944923029e-17
1.680475944923029e-17
)
"out" 6.772217047416285e-09
"freq" 3.126435727223825e+07
"m1" (
0.000000000000000e+00
0.000000000000000e+00
2.692932560714732e-17
2.692932560714732e-17
)
"rl" (
1.557362104748168e-17
1.557362104748168e-17
)
"out" 6.519428399378966e-09
"freq" 3.667384419873422e+07
"m1" (
0.000000000000000e+00
0.000000000000000e+00
2.446326957379139e-17
2.446326957379139e-17
)
"rl" (
1.414746494147255e-17
1.414746494147255e-17
)
"out" 6.213753657433158e-09
"freq" 4.301930267113863e+07
"m1" (
0.000000000000000e+00
0.000000000000000e+00
2.172570035164863e-17
2.172570035164863e-17
)
"rl" (
1.256428880558057e-17
1.256428880558057e-17
)
"out" 5.855765462962908e-09
"freq" 5.046267831325165e+07
"m1" (
0.000000000000000e+00
0.000000000000000e+00
1.882675550685778e-17
1.882675550685778e-17
)
"rl" (
1.088778679773449e-17
1.088778679773449e-17
)
"out" 5.451104686629332e-09
"freq" 5.919393724285393e+07
"m1" (
0.000000000000000e+00
0.000000000000000e+00
1.590630793311505e-17
1.590630793311505e-17
)
"rl" (
9.198849448689430e-18
9.198849448689430e-18
)
"out" 5.010504703301303e-09
"freq" 6.943591429214309e+07
"m1" (
0.000000000000000e+00
0.000000000000000e+00
1.310837845104220e-17
1.310837845104220e-17
)
"rl" (
7.580766095728883e-18
7.580766095728883e-18
)
"out" 4.548532131003483e-09
"freq" 8.145000008709319e+07
"m1" (
0.000000000000000e+00
0.000000000000000e+00
1.055393802005441e-17
1.055393802005441e-17
)
"rl" (
6.103496005830639e-18
6.103496005830639e-18
)
"out" 4.081351985051650e-09
"freq" 9.554281212853780e+07
"m1" (
0.000000000000000e+00
0.000000000000000e+00
8.322379884918694e-18
8.322379884918694e-18
)
"rl" (
4.812953448284951e-18
4.812953448284951e-18
)
"out" 3.624270041429535e-09
"freq" 1.120740201309784e+08
"m1" (
0.000000000000000e+00
0.000000000000000e+00
6.446745944030224e-18
6.446745944030224e-18
)
"rl" (
3.728247033972112e-18
3.728247033972112e-18
)
"out" 3.189826480861041e-09
"freq" 1.314655253335086e+08
"m1" (
0.000000000000000e+00
0.000000000000000e+00
4.920770569735115e-18
4.920770569735115e-18
)
"rl" (
2.845753259202142e-18
2.845753259202142e-18
)
"out" 2.786848368486749e-09
"freq" 1.542122280526471e+08
"m1" (
0.000000000000000e+00
0.000000000000000e+00
3.711821692234338e-18
3.711821692234338e-18
)
"rl" (
2.146600522938358e-18
2.146600522938358e-18
)
"out" 2.420417776990719e-09
"freq" 1.808946582811860e+08
"m1" (
0.000000000000000e+00
0.000000000000000e+00
2.774040564502136e-18
2.774040564502136e-18
)
"rl" (
1.604268044144121e-18
1.604268044144121e-18
)
"out" 2.092440825602066e-09
"freq" 2.121937916848958e+08
"m1" (
0.000000000000000e+00
0.000000000000000e+00
2.058445156552394e-18
2.058445156552394e-18
)
"rl" (
1.190428801776703e-18
1.190428801776703e-18
)
"out" 1.802463302907745e-09
"freq" 2.489084291235587e+08
"m1" (
0.000000000000000e+00
0.000000000000000e+00
1.519202476360447e-18
1.519202476360447e-18
)
"rl" (
8.785769092915521e-19
8.785769092915521e-19
)
"out" 1.548476472424428e-09
"freq" 2.919755832477908e+08
"m1" (
0.000000000000000e+00
0.000000000000000e+00
1.116681756645771e-18
1.116681756645771e-18
)
"rl" (
6.457933170083438e-19
6.457933170083438e-19
)
"out" 1.327582416897013e-09
"freq" 3.424943924682013e+08
"m1" (
0.000000000000000e+00
0.000000000000000e+00
8.183368890746272e-19
8.183368890746272e-19
)
"rl" (
4.732561366572351e-19
4.732561366572351e-19
)
"out" 1.136482743261798e-09
"freq" 4.017541726172743e+08
"m1" (
0.000000000000000e+00
0.000000000000000e+00
5.983642557906088e-19
5.983642557906088e-19
)
"rl" (
3.460427603715429e-19
3.460427603715429e-19
)
"out" 9.718060589243883e-10
"freq" 4.712673222244840e+08
"m1" (
0.000000000000000e+00
0.000000000000000e+00
4.368033316821172e-19
4.368033316821172e-19
)
"rl" (
2.526097258851985e-19
2.526097258851985e-19
)
"out" 8.303090133000579e-10
"freq" 5.528079211966501e+08
"m1" (
0.000000000000000e+00
0.000000000000000e+00
3.184807305405241e-19
3.184807305405241e-19
)
"rl" (
1.841820430529771e-19
1.841820430529771e-19
)
"out" 7.089871462822871e-10
"freq" 6.484570079997900e+08
"m1" (
0.000000000000000e+00
0.000000000000000e+00
2.320051838504439e-19
2.320051838504439e-19
)
"rl" (
1.341719754533756e-19
1.341719754533756e-19
)
"out" 6.051257384245190e-10
"freq" 7.606556908840975e+08
"m1" (
0.000000000000000e+00
0.000000000000000e+00
1.689012027262446e-19
1.689012027262446e-19
)
"rl" (
9.767802447396886e-20
9.767802447396886e-20
)
"out" 5.163131096536416e-10
"freq" 8.922674486302276e+08
"m1" (
0.000000000000000e+00
0.000000000000000e+00
1.229034198282496e-19
1.229034198282496e-19
)
"rl" (
7.107683696827133e-20
7.107683696827133e-20
)
"out" 4.404318980234298e-10
"freq" 1.046651210825432e+09
"m1" (
0.000000000000000e+00
0.000000000000000e+00
8.940188555901697e-20
8.940188555901697e-20
)
"rl" (
5.170241197042534e-20
5.170241197042534e-20
)
"out" 3.756385197626068e-10
"freq" 1.227747082787875e+09
"m1" (
0.000000000000000e+00
0.000000000000000e+00
6.501615083448009e-20
6.501615083448009e-20
)
"rl" (
3.759978656106282e-20
3.759978656106282e-20
)
"out" 3.203372244924759e-10
"freq" 1.440176902967866e+09
"m1" (
0.000000000000000e+00
0.000000000000000e+00
4.727343228789781e-20
4.727343228789781e-20
)
"rl" (
2.733891411933856e-20
2.733891411933856e-20
)
"out" 2.731526064441567e-10
"freq" 1.689362199201796e+09
"m1" (
0.000000000000000e+00
0.000000000000000e+00
3.436811938856163e-20
3.436811938856163e-20
)
"rl" (
1.987558378847814e-20
1.987558378847814e-20
)
"out" 2.329027762330019e-10
"freq" 1.981662554239427e+09
"m1" (
0.000000000000000e+00
0.000000000000000e+00
2.498347045540173e-20
2.498347045540173e-20
)
"rl" (
1.444830468461915e-20
1.444830468461915e-20
)
"out" 1.985743567030267e-10
"freq" 2.324537911840449e+09
"m1" (
0.000000000000000e+00
0.000000000000000e+00
1.816015243180140e-20
1.816015243180140e-20
)
"rl" (
1.050228053473105e-20
1.050228053473105e-20
)
"out" 1.692998315608508e-10
"freq" 2.726738965735484e+09
"m1" (
0.000000000000000e+00
0.000000000000000e+00
1.319970431517791e-20
1.319970431517791e-20
)
"rl" (
7.633581172520334e-21
7.633581172520334e-21
)
"out" 1.443374015551695e-10
"freq" 3.198530490463581e+09
"m1" (
0.000000000000000e+00
0.000000000000000e+00
9.593849812369323e-21
9.593849812369323e-21
)
"rl" (
5.548263017943450e-21
5.548263017943450e-21
)
"out" 1.230532926431177e-10
"freq" 3.751953313824336e+09
"m1" (
0.000000000000000e+00
0.000000000000000e+00
6.972844778573456e-21
6.972844778573456e-21
)
"rl" (
4.032497649164773e-21
4.032497649164773e-21
)
"out" 1.049063507502679e-10
"freq" 4.401131616874828e+09
"m1" (
0.000000000000000e+00
0.000000000000000e+00
5.067790181381316e-21
5.067790181381316e-21
)
"rl" (
2.930776840992774e-21
2.930776840992774e-21
)
"out" 8.943470815278646e-11
"freq" 5.162633404228476e+09
"m1" (
0.000000000000000e+00
0.000000000000000e+00
3.683164444086954e-21
3.683164444086954e-21
)
"rl" (
2.130027619130007e-21
2.130027619130007e-21
)
"out" 7.624429200416882e-11
"freq" 6.055893344398868e+09
"m1" (
0.000000000000000e+00
0.000000000000000e+00
2.676819745968338e-21
2.676819745968338e-21
)
"rl" (
1.548043829402943e-21
1.548043829402943e-21
)
"out" 6.499895057130754e-11
"freq" 7.103708771708764e+09
"m1" (
0.000000000000000e+00
0.000000000000000e+00
1.945422342641818e-21
1.945422342641818e-21
)
"rl" (
1.125066063056793e-21
1.125066063056793e-21
)
"out" 5.541198792408201e-11
"freq" 8.332821508477404e+09
"m1" (
0.000000000000000e+00
0.000000000000000e+00
1.413859689197371e-21
1.413859689197371e-21
)
"rl" (
8.176556418489008e-22
8.176556418489008e-22
)
"out" 4.723891754735995e-11
"freq" 9.774600356461565e+09
"m1" (
0.000000000000000e+00
0.000000000000000e+00
1.027535916308612e-21
1.027535916308612e-21
)
"rl" (
5.942389797173366e-22
5.942389797173366e-22
)
"out" 4.027126638219798e-11
"freq" 1.146584167575628e+10
"m1" (
0.000000000000000e+00
0.000000000000000e+00
7.467693139520031e-22
7.467693139520031e-22
)
"rl" (
4.318675660518462e-22
4.318675660518462e-22
)
"out" 3.433128136268510e-11
"freq" 1.344970848313031e+10
"m1" (
0.000000000000000e+00
0.000000000000000e+00
5.427189810413462e-22
5.427189810413462e-22
)
"rl" (
3.138622878758629e-22
3.138622878758629e-22
)
"out" 2.926740967214573e-11
"freq" 1.577683203699528e+10
"m1" (
0.000000000000000e+00
0.000000000000000e+00
3.944236065144918e-22
3.944236065144918e-22
)
"rl" (
2.281009138382363e-22
2.281009138382363e-22
)
"out" 2.495044128573136e-11
"freq" 1.850660402311034e+10
"m1" (
0.000000000000000e+00
0.000000000000000e+00
2.866489204937628e-22
2.866489204937628e-22
)
"rl" (
1.657732438815598e-22
1.657732438815598e-22
)
"out" 2.127021777921708e-11
"freq" 2.170869231954075e+10
"m1" (
0.000000000000000e+00
0.000000000000000e+00
2.083230732091017e-22
2.083230732091017e-22
)
"rl" (
1.204762660949909e-22
1.204762660949909e-22
)
"out" 1.813282491240933e-11
"freq" 2.546481902546717e+10
"m1" (
0.000000000000000e+00
0.000000000000000e+00
1.513994105145242e-22
1.513994105145242e-22
)
"rl" (
8.755648323920590e-23
8.755648323920590e-23
)
"out" 1.545819826997086e-11
"freq" 2.987084613180943e+10
"m1" (
0.000000000000000e+00
0.000000000000000e+00
1.100299235278351e-22
1.100299235278351e-22
)
"rl" (
6.363190663976726e-23
6.363190663976726e-23
)
"out" 1.317808142969235e-11
"freq" 3.503922206310928e+10
"m1" (
0.000000000000000e+00
0.000000000000000e+00
7.996451446510109e-23
7.996451446510109e-23
)
"rl" (
4.624464287344894e-23
4.624464287344894e-23
)
"out" 1.123428490552692e-11
"freq" 4.110185153009301e+10
"m1" (
0.000000000000000e+00
0.000000000000000e+00
5.811439234817205e-23
5.811439234817205e-23
)
"rl" (
3.360839914962038e-23
3.360839914962038e-23
)
"out" 9.577201652768539e-12
"freq" 4.821346193585840e+10
"m1" (
0.000000000000000e+00
0.000000000000000e+00
4.223475966267380e-23
4.223475966267380e-23
)
"rl" (
2.442497638497763e-23
2.442497638497763e-23
)
"out" 8.164541386241571e-12
"freq" 5.655555225142448e+10
"m1" (
0.000000000000000e+00
0.000000000000000e+00
3.069419882634429e-23
3.069419882634429e-23
)
"rl" (
1.775090204080979e-23
1.775090204080979e-23
)
"out" 6.960251494533375e-12
"freq" 6.634102514187479e+10
"m1" (
0.000000000000000e+00
0.000000000000000e+00
2.230707048816939e-23
2.230707048816939e-23
)
"rl" (
1.290050361937055e-23
1.290050361937055e-23
)
"out" 5.933597063126206e-12
"freq" 7.781962056190530e+10
"m1" (
0.000000000000000e+00
0.000000000000000e+00
1.621170715631447e-23
1.621170715631447e-23
)
"rl" (
9.375466265600758e-24
9.375466265600758e-24
)
"out" 5.058376559916751e-12
"freq" 9.128428949429068e+10
"m1" (
0.000000000000000e+00
0.000000000000000e+00
1.178188938635410e-23
1.178188938635410e-23
)
"rl" (
6.813638158013360e-24
6.813638158013360e-24
)
"out" 4.312253186487021e-12
"freq" 1.070786704986403e+11
"m1" (
0.000000000000000e+00
0.000000000000000e+00
8.562510512141115e-24
8.562510512141115e-24
)
"rl" (
4.951824485934089e-24
4.951824485934089e-24
)
"out" 3.676184842751409e-12
"freq" 1.256058598831894e+11
"m1" (
0.000000000000000e+00
0.000000000000000e+00
6.222820645606335e-24
6.222820645606335e-24
)
"rl" (
3.598747773891409e-24
3.598747773891409e-24
)
"out" 3.133938164593830e-12
"freq" 1.473386993275728e+11
"m1" (
0.000000000000000e+00
0.000000000000000e+00
4.522446548782792e-24
4.522446548782792e-24
)
"rl" (
2.615396678910573e-24
2.615396678910573e-24
)
"out" 2.671674236821054e-12
"freq" 1.728318435121539e+11
"m1" (
0.000000000000000e+00
0.000000000000000e+00
3.286696450551237e-24
3.286696450551237e-24
)
"rl" (
1.900744406514318e-24
1.900744406514318e-24
)
